time,P(B1|X1|X5|X73),P(B2|X1|X5|X73),P(B1|X1|X5|X32),P(B2|X1|X5|X32),P(B1|X1|X5|X34),P(B2|X1|X5|X34),P(B1|X1|X1),P(B2|X1|X1),P(B1|X2|X1),P(B2|X2|X1),P(B1|X5|X1),P(B2|X5|X1),P(B1|X7|X1),P(B2|X7|X1),V(R31),V(R51),V(R72)
0.0,1.224638e-16,2.016492e-16,1.224638e-16,2.016492e-16,-1.058079e-14,-1.772218e-14,-2.023041e-11,-3.482205e-11,-4.158613e-11,-7.159319e-11,3.184726e-10,5.483189e-10,-5.528333e-10,-9.517523e-10,-3.042408e-35,-6.084817e-35,6.084817e-35
1e-13,6.743959e-07,6.743959e-07,6.743959e-07,6.743959e-07,6.743959e-07,6.743959e-07,6.106177e-07,6.106026e-07,2.020094e-07,2.019783e-07,7.491779e-07,7.494156e-07,-8.998877e-08,-9.040134e-08,-1.129484e-08,-1.129484e-08,5.112541e-10
2e-13,3.502825e-06,3.596243e-06,3.502825e-06,3.596243e-06,3.502825e-06,3.596243e-06,3.168033e-06,3.252603e-06,1.08836e-06,1.116316e-06,3.922983e-06,4.026965e-06,-5.031811e-07,-5.160022e-07,-2.662271e-08,-2.662271e-08,1.458163e-09
3e-13,1.044093e-05,1.101877e-05,1.044093e-05,1.101877e-05,1.044093e-05,1.101877e-05,9.428297e-06,9.95099e-06,3.36541e-06,3.543894e-06,1.178498e-05,1.243147e-05,-1.60656e-06,-1.688925e-06,-4.231159e-08,-4.231159e-08,2.764598e-09
4e-13,2.350243e-05,2.554822e-05,2.350243e-05,2.554822e-05,2.350243e-05,2.554822e-05,2.117963e-05,2.302796e-05,7.857304e-06,8.508422e-06,2.671465e-05,2.901759e-05,-3.839175e-06,-4.146861e-06,-5.772039e-08,-5.772039e-08,4.459582e-09
5e-13,4.446465e-05,4.990098e-05,4.446465e-05,4.990098e-05,4.446465e-05,4.990098e-05,3.996727e-05,4.487151e-05,1.541109e-05,1.719227e-05,5.084772e-05,5.700207e-05,-7.640976e-06,-8.499512e-06,-7.299721e-08,-7.299721e-08,6.642973e-09
6e-13,7.474013e-05,8.677677e-05,7.474013e-05,8.677677e-05,7.474013e-05,8.677677e-05,6.697188e-05,7.781083e-05,2.683746e-05,3.089447e-05,8.589282e-05,9.958756e-05,-1.33943e-05,-1.537807e-05,-8.830276e-08,-8.830276e-08,9.44142e-09
7e-13,0.0001153777,0.0001388104,0.0001153777,0.0001388104,0.0001153777,0.0001388104,0.0001030096,0.0001240659,4.288787e-05,5.100848e-05,0.0001331,0.0001598765,-2.139005e-05,-2.539742e-05,-1.037278e-07,-1.037278e-07,1.298433e-08
8e-13,0.0001671409,0.0002085592,0.0001671409,0.0002085592,0.0001671409,0.0002085592,0.000148606,0.000185733,6.425947e-05,7.901166e-05,0.0001933303,0.0002408331,-3.181928e-05,-3.913154e-05,-1.193329e-07,-1.193329e-07,1.739641e-08
9e-13,0.0002306204,0.0002985002,0.0002306204,0.0002985002,0.0002306204,0.0002985002,0.0002041051,0.0002647827,9.161768e-05,0.0001164597,0.0002671784,0.0003452659,-4.478452e-05,-5.709912e-05,-1.35171e-07,-1.35171e-07,2.279816e-08
1e-12,0.0003063519,0.0004110271,0.0003063519,0.0004110271,0.0003063519,0.0004110271,0.0002697831,0.0003630607,0.0001256274,0.0001649824,0.0003551129,0.0004758176,-6.032335e-05,-7.975569e-05,-1.512927e-07,-1.512927e-07,2.930888e-08
1.1e-12,0.0003949188,0.0005484484,0.0003949188,0.0005484484,0.0003949188,0.0005484484,0.000345951,0.0004822915,0.0001669861,0.00022628,0.0004576069,0.0006349601,-7.843667e-05,-0.00010749,-1.677466e-07,-1.677466e-07,3.704927e-08
1.2e-12,0.0004970319,0.000712989,0.0004970319,0.000712989,0.0004970319,0.000712989,0.0004330331,0.0006240875,0.0002164531,0.0003021203,0.0005752436,0.0008249972,-9.911555e-05,-0.0001406231,-1.845802e-07,-1.845802e-07,4.614323e-08
1.3e-12,0.0006135777,0.0009067998,0.0006135777,0.0009067998,0.0006135777,0.0009067998,0.0005316166,0.0007899656,0.0002748725,0.0003943386,0.0007087865,0.001048078,-0.0001223625,-0.0001794096,-2.018398e-07,-2.018398e-07,5.671867e-08
1.4e-12,0.0007456381,0.001131978,0.0007456381,0.001131978,0.0007456381,0.001131978,0.000642473,0.0009813748,0.0003431885,0.0005048396,0.0008592124,0.001306223,-0.0001482049,-0.0002240412,-2.195712e-07,-2.195712e-07,6.890767e-08
1.5e-12,0.0008944836,0.001390595,0.0008944836,0.001390595,0.0008944836,0.001390595,0.000766553,0.001199731,0.0004224511,0.0006356045,0.00102771,0.001601359,-0.0001766994,-0.000274652,-2.378199e-07,-2.378199e-07,8.284628e-08
1.6e-12,0.001061546,0.001684735,0.001061546,0.001684735,0.001061546,0.001684735,0.000904962,0.001446457,0.0005138156,0.0007887,0.001215651,0.001935367,-0.0002079293,-0.000331325,-2.566312e-07,-2.566312e-07,9.867408e-08
1.7e-12,0.00124838,0.002016537,0.00124838,0.002016537,0.00124838,0.002016537,0.001058924,0.001723035,0.0006185361,0.0009662914,0.001424542,0.002310133,-0.0002419944,-0.0003941,-2.760501e-07,-2.760501e-07,1.165337e-07
1.8e-12,0.001456621,0.002388232,0.001456621,0.002388232,0.001456621,0.002388232,0.001229741,0.002031041,0.000737955,0.001170657,0.001655972,0.002727597,-0.0002789979,-0.0004629811,-2.96121e-07,-2.96121e-07,1.365707e-07
1.9e-12,0.001687942,0.00280219,0.001687942,0.00280219,0.001687942,0.002802189,0.001418757,0.002372197,0.0008734931,0.001404203,0.001911556,0.003189807,-0.0003190313,-0.0005379425,-3.16888e-07,-3.16888e-07,1.589328e-07
2e-12,0.00194403,0.003260946,0.00194403,0.003260946,0.00194403,0.003260946,0.001627331,0.002748401,0.001026639,0.00166948,0.002192893,0.003698951,-0.000362159,-0.0006189334,-3.383947e-07,-3.383947e-07,1.837708e-07
2.1e-12,0.002226564,0.003767234,0.002226564,0.003767234,0.002226564,0.003767234,0.00185682,0.003161755,0.001198944,0.001969196,0.002501543,0.004257394,-0.0004084064,-0.0007058793,-3.606843e-07,-3.606843e-07,2.112379e-07
2.2e-12,0.002537217,0.004323997,0.002537217,0.004323997,0.002537217,0.004323997,0.002108583,0.003614586,0.001392018,0.002306228,0.002839011,0.004867691,-0.0004577498,-0.0007986805,-3.837997e-07,-3.837997e-07,2.414909e-07
2.3e-12,0.002877665,0.004934404,0.002877665,0.004934404,0.002877665,0.004934404,0.002383988,0.004109456,0.001607533,0.002683637,0.00320676,0.005532601,-0.0005101107,-0.0008972068,-4.077838e-07,-4.077838e-07,2.746905e-07
2.4e-12,0.003249612,0.005601851,0.003249612,0.005601851,0.003249612,0.00560185,0.002684444,0.004649168,0.00184723,0.003104671,0.00360623,0.006255082,-0.0005653531,-0.001001289,-4.3268e-07,-4.3268e-07,3.110024e-07
2.5e-12,0.003654822,0.006329961,0.003654822,0.006329961,0.003654821,0.00632996,0.003011424,0.005236764,0.002112928,0.003572777,0.004038874,0.007038287,-0.0006232832,-0.00111071,-4.585323e-07,-4.585323e-07,3.505981e-07
2.6e-12,0.004095151,0.007122586,0.004095151,0.007122586,0.00409515,0.007122584,0.003366503,0.005875529,0.002406542,0.004091612,0.004506196,0.007885548,-0.0006836505,-0.001225185,-4.853861e-07,-4.853861e-07,3.936566e-07
2.7e-12,0.004572586,0.007983803,0.004572586,0.007983803,0.004572584,0.007983801,0.003751391,0.006568982,0.002730093,0.004665044,0.005009786,0.00880037,-0.0007461487,-0.001344352,-5.132884e-07,-5.132884e-07,4.403649e-07
2.8e-12,0.005089268,0.008917918,0.005089268,0.008917918,0.005089266,0.008917914,0.004167961,0.007320886,0.003085728,0.005297169,0.005551356,0.009786415,-0.0008104158,-0.001467753,-5.422883e-07,-5.422883e-07,4.909197e-07
2.9e-12,0.005647525,0.009929471,0.005647525,0.009929471,0.005647522,0.009929466,0.004618271,0.008135247,0.003475735,0.005992319,0.006132761,0.0108475,-0.0008760316,-0.001594812,-5.724374e-07,-5.724374e-07,5.455288e-07
3e-12,0.006249881,0.01102325,0.006249881,0.01102325,0.006249876,0.01102324,0.005104578,0.009016325,0.003902554,0.006755079,0.006756018,0.0119876,-0.0009425113,-0.00172482,-6.037901e-07,-6.037901e-07,6.044118e-07
3.1e-12,0.006899069,0.01220431,0.006899069,0.01220431,0.006899063,0.0122043,0.005629348,0.009968648,0.004368795,0.0075903,0.007423303,0.01321083,-0.001009296,-0.001856908,-6.364037e-07,-6.364037e-07,6.678018e-07
3.2e-12,0.007598032,0.01347797,0.007598032,0.01347797,0.007598024,0.01347796,0.006195256,0.01099703,0.004877245,0.008503124,0.008136952,0.01452147,-0.001075741,-0.001990033,-6.70339e-07,-6.70339e-07,7.359462e-07
3.3e-12,0.008349926,0.01484989,0.008349926,0.01484989,0.008349915,0.01484988,0.006805181,0.01210661,0.005430881,0.009499004,0.008899442,0.01592399,-0.001141094,-0.002122945,-7.056602e-07,-7.056602e-07,8.091082e-07
3.4e-12,0.009158109,0.01632605,0.009158109,0.01632605,0.009158095,0.01632603,0.007462205,0.01330284,0.006032876,0.01058373,0.009713374,0.01742302,-0.001204477,-0.002254162,-7.42435e-07,-7.42435e-07,8.875676e-07
3.5e-12,0.01002615,0.01791279,0.01002615,0.01791279,0.01002613,0.01791277,0.00816961,0.01459154,0.006686611,0.01176345,0.01058146,0.01902338,-0.001264862,-0.002381937,-7.80735e-07,-7.80735e-07,9.716222e-07
3.6e-12,0.0109578,0.01961687,0.0109578,0.01961687,0.01095778,0.01961684,0.008930873,0.01597893,0.007395682,0.01304471,0.01150648,0.0207301,-0.001321037,-0.002504222,-8.206356e-07,-8.206356e-07,1.061589e-06
3.7e-12,0.01195704,0.02144545,0.01195704,0.02144545,0.01195701,0.02144541,0.00974967,0.01747164,0.008163913,0.01443447,0.01249129,0.02254839,-0.001371581,-0.002618618,-8.622164e-07,-8.622164e-07,1.157804e-06
3.8e-12,0.01302806,0.02340616,0.01302806,0.02340616,0.01302802,0.02340611,0.01062989,0.01907674,0.008995369,0.01594016,0.0135388,0.02448369,-0.001414824,-0.00272233,-9.055613e-07,-9.055613e-07,1.260627e-06
3.9e-12,0.01417526,0.02550712,0.01417526,0.02550712,0.01417521,0.02550705,0.01157563,0.02080177,0.009894369,0.01756968,0.01465194,0.02654157,-0.001448808,-0.002812099,-9.507586e-07,-9.507586e-07,1.370437e-06
4e-12,0.01540329,0.02775694,0.01540329,0.02775694,0.01540323,0.02775685,0.01259125,0.02265479,0.0108655,0.01933145,0.01583369,0.02872781,-0.001471244,-0.002884131,-9.979017e-07,-9.979017e-07,1.487642e-06
4.1e-12,0.01671708,0.03016478,0.01671708,0.03016478,0.016717,0.03016466,0.01368134,0.02464435,0.01191366,0.02123446,0.01708703,0.03104832,-0.001479461,-0.002934014,-1.047089e-06,-1.047089e-06,1.61267e-06
4.2e-12,0.01812184,0.03274037,0.01812184,0.03274037,0.01812174,0.03274022,0.01485082,0.02677959,0.01304404,0.02328828,0.01841495,0.03350908,-0.001470347,-0.002956618,-1.098424e-06,-1.098424e-06,1.74598e-06
4.3e-12,0.01962309,0.03549402,0.01962309,0.03549402,0.01962296,0.03549383,0.01610488,0.0290702,0.01426218,0.0255031,0.01982043,0.03611617,-0.001440287,-0.002945981,-1.152016e-06,-1.152016e-06,1.888058e-06
4.4e-12,0.02122671,0.03843668,0.02122671,0.03843668,0.02122655,0.03843644,0.01744908,0.03152651,0.01557399,0.02788981,0.02130643,0.03887566,-0.001385085,-0.002895175,-1.207982e-06,-1.207982e-06,2.039421e-06
4.5e-12,0.02293894,0.04157995,0.02293894,0.04157995,0.02293874,0.04157965,0.01888935,0.0341595,0.01698576,0.03046001,0.02287585,0.04179357,-0.001299875,-0.002796159,-1.266443e-06,-1.266443e-06,2.200616e-06
4.6e-12,0.02476641,0.04493612,0.02476641,0.04493612,0.02476617,0.04493575,0.02043201,0.03698085,0.01850424,0.03322605,0.02453149,0.04487578,-0.001179018,-0.002639598,-1.327529e-06,-1.327529e-06,2.372227e-06
4.7e-12,0.0267162,0.04851823,0.0267162,0.04851823,0.0267159,0.04851776,0.0220838,0.04000297,0.02013658,0.03620111,0.02627602,0.04812796,-0.001015986,-0.002414666,-1.391375e-06,-1.391375e-06,2.55487e-06
4.8e-12,0.02879581,0.05234008,0.02879581,0.05234008,0.02879543,0.0523395,0.02385192,0.04323906,0.02189048,0.03939927,0.0281119,0.05155549,-0.0008032219,-0.002108811,-1.458127e-06,-1.458127e-06,2.749203e-06
4.9e-12,0.03101321,0.05641631,0.03101321,0.05641631,0.03101275,0.0564156,0.02574404,0.04670316,0.02377412,0.0428355,0.0300413,0.05516329,-0.0005319814,-0.00170749,-1.527936e-06,-1.527936e-06,2.955919e-06
5e-12,0.03337686,0.06076242,0.03337686,0.06076242,0.0333763,0.06076155,0.02776835,0.05041021,0.02579626,0.04652581,0.03206603,0.05895571,-0.0001921471,-0.00119386,-1.600962e-06,-1.600962e-06,3.175757e-06
5.1e-12,0.03589576,0.06539485,0.03589576,0.06539485,0.03589507,0.06539379,0.02993355,0.0543761,0.02796626,0.05048729,0.03418741,0.06293637,0.0002279831,-0.0005484267,-1.677374e-06,-1.677374e-06,3.409497e-06
5.2e-12,0.03857941,0.07033101,0.03857941,0.07033101,0.03857858,0.07032971,0.03224891,0.05861776,0.0302941,0.05473815,0.03640617,0.06710794,0.0007419411,0.0002513658,-1.757351e-06,-1.757351e-06,3.657967e-06
5.3e-12,0.04143791,0.07558934,0.04143791,0.07558934,0.0414369,0.07558776,0.03472431,0.0631532,0.0327905,0.05929787,0.03872225,0.07147195,0.001365371,0.001231603,-1.841081e-06,-1.841081e-06,3.922045e-06
5.4e-12,0.04448194,0.08118938,0.04448194,0.08118938,0.04448072,0.08118746,0.03737026,0.06800156,0.03546686,0.06418722,0.04113469,0.07602846,0.002116354,0.002422441,-1.928762e-06,-1.928762e-06,4.202658e-06
5.5e-12,0.04772282,0.0871518,0.04772282,0.0871518,0.04772136,0.08714949,0.04019794,0.07318327,0.0383354,0.06942843,0.04364141,0.08077579,0.003015781,0.003858731,-2.020601e-06,-2.020601e-06,4.50079e-06
5.6e-12,0.05117253,0.0934985,0.05117253,0.0934985,0.05117077,0.09349571,0.04321925,0.07872003,0.04140921,0.07504521,0.04623898,0.08571012,0.004087782,0.005580736,-2.11682e-06,-2.11682e-06,4.817482e-06
5.7e-12,0.05484374,0.1002526,0.05484374,0.1002526,0.05484164,0.1002493,0.04644688,0.08463495,0.04470228,0.08106293,0.04892232,0.09082506,0.005360221,0.007634958,-2.21765e-06,-2.21765e-06,5.153834e-06
5.8e-12,0.05874989,0.1074386,0.05874989,0.1074386,0.05874738,0.1074346,0.04989434,0.09095261,0.04822957,0.0875087,0.05168448,0.09611114,0.006865261,0.01007509,-2.323334e-06,-2.323334e-06,5.511011e-06
5.9e-12,0.06290518,0.1150824,0.06290518,0.1150824,0.06290219,0.1150776,0.053576,0.09769916,0.05200714,0.09441149,0.05451619,0.1015552,0.008640014,0.01296309,-2.434129e-06,-2.434129e-06,5.890245e-06
6e-12,0.06732463,0.1232112,0.06732463,0.1232112,0.06732108,0.1232055,0.05750721,0.1049024,0.05605217,0.1018023,0.05740553,0.1071397,0.01072728,0.01637046,-2.550306e-06,-2.550306e-06,6.292838e-06
6.1e-12,0.07202415,0.1318539,0.07202415,0.1318539,0.07201994,0.1318471,0.06170431,0.1125919,0.06038312,0.1097142,0.06033742,0.1128421,0.01317641,0.02037966,-2.67215e-06,-2.67215e-06,6.720168e-06
6.2e-12,0.07702054,0.1410407,0.07702054,0.1410407,0.07701556,0.1410326,0.06618471,0.1207991,0.06501973,0.1181827,0.06329307,0.1186336,0.01604426,0.02508574,-2.79996e-06,-2.79996e-06,7.173688e-06
6.3e-12,0.08233156,0.1508035,0.08233156,0.1508035,0.08232569,0.150794,0.07096698,0.1295574,0.06998324,0.1272457,0.06624943,0.1244784,0.01939628,0.03059818,-2.934052e-06,-2.934052e-06,7.654933e-06
6.4e-12,0.08797596,0.161176,0.08797596,0.161176,0.08796905,0.1611648,0.07607091,0.1389023,0.07529642,0.1369436,0.06917846,0.1303326,0.02330777,0.03704301,-3.074758e-06,-3.074758e-06,8.165526e-06
6.5e-12,0.09397352,0.1721934,0.09397352,0.1721934,0.09396541,0.1721802,0.08151757,0.1488713,0.08098371,0.1473199,0.07204641,0.1361428,0.02786521,0.04456513,-3.222426e-06,-3.222426e-06,8.707176e-06
6.6e-12,0.1003451,0.1838926,0.1003451,0.1838926,0.1003356,0.1838771,0.08732942,0.1595044,0.08707139,0.1584209,0.07481297,0.1418444,0.03316783,0.05333093,-3.377425e-06,-3.377425e-06,9.281684e-06
6.7e-12,0.1071126,0.1963122,0.1071126,0.1963122,0.1071015,0.196294,0.09353038,0.1708439,0.09358766,0.170296,0.07743046,0.1473607,0.03932919,0.06353112,-3.540139e-06,-3.540139e-06,9.890951e-06
6.8e-12,0.1142991,0.2094926,0.1142991,0.2094926,0.1142862,0.2094714,0.1001459,0.1829345,0.1005628,0.1829982,0.07984292,0.1526006,0.0464789,0.07538377,-3.710973e-06,-3.710973e-06,1.053697e-05
6.9e-12,0.1219289,0.2234758,0.1219289,0.2234758,0.1219138,0.2234511,0.1072031,0.1958238,0.1080294,0.1965839,0.08198536,0.1574576,0.05476441,0.08913745,-3.890353e-06,-3.890353e-06,1.122185e-05
7e-12,0.1300273,0.2383056,0.1300273,0.2383056,0.1300098,0.2382769,0.1147307,0.2095617,0.1160223,0.2111133,0.08378312,0.1618079,0.06435255,0.1050743,-4.078725e-06,-4.078725e-06,1.19478e-05
7.1e-12,0.1386209,0.2540271,0.1386209,0.2540271,0.1386007,0.2539937,0.1227594,0.2242009,0.124579,0.2266504,0.08515152,0.1655097,0.07543096,0.1235129,-4.276555e-06,-4.276555e-06,1.271712e-05
7.2e-12,0.1477375,0.2706868,0.1477375,0.2706868,0.147714,0.2706482,0.1313217,0.2397971,0.1337396,0.2432632,0.08599618,0.1684019,0.0882088,0.14481,-4.484333e-06,-4.484333e-06,1.353224e-05
7.3e-12,0.1574058,0.2883329,0.1574058,0.2883329,0.1573788,0.2882883,0.140452,0.2564085,0.1435468,0.2610237,0.08621409,0.1703053,0.1029166,0.1693617,-4.702571e-06,-4.702571e-06,1.43957e-05
7.4e-12,0.167656,0.3070141,0.167656,0.3070141,0.1676248,0.3069626,0.1501867,0.2740961,0.1540462,0.2800079,0.08569611,0.1710244,0.1198048,0.1976014,-4.931802e-06,-4.931802e-06,1.531013e-05
7.5e-12,0.178519,0.3267801,0.178519,0.3267801,0.1784832,0.3267209,0.1605643,0.2929235,0.1652861,0.3002953,0.08433123,0.1703517,0.1391393,0.2299954,-5.172585e-06,-5.172585e-06,1.62783e-05
7.6e-12,0.190027,0.3476809,0.190027,0.3476809,0.1899859,0.347613,0.1716254,0.3129567,0.1773174,0.3219688,0.08201329,0.1680756,0.1611955,0.2670331,-5.425501e-06,-5.425501e-06,1.730306e-05
7.7e-12,0.2022128,0.3697667,0.2022128,0.3697667,0.2021657,0.3696889,0.1834125,0.3342637,0.1901931,0.3451138,0.07865074,0.1639918,0.1862471,0.3092107,-5.691154e-06,-5.691154e-06,1.838736e-05
7.8e-12,0.2151099,0.3930867,0.2151099,0.3930867,0.2150562,0.3929978,0.1959699,0.3569142,0.2039683,0.3698171,0.07417959,0.1579202,0.2145518,0.3570079,-5.970172e-06,-5.970172e-06,1.953427e-05
7.9e-12,0.2287527,0.417689,0.2287527,0.417689,0.2286914,0.4175877,0.2093437,0.3809788,0.2186986,0.3961655,0.06857964,0.1497271,0.2463313,0.4108539,-6.263205e-06,-6.263205e-06,2.074691e-05
8e-12,0.2431753,0.4436198,0.2431753,0.4436198,0.2431056,0.4435045,0.2235815,0.4065283,0.23444,0.4242437,0.06189289,0.1393519,0.2817488,0.4710843,-6.570924e-06,-6.570924e-06,2.202849e-05
8.1e-12,0.2584123,0.4709221,0.2584123,0.4709221,0.258333,0.4707913,0.2387316,0.4336323,0.2512467,0.4541316,0.05424244,0.1268378,0.3208833,0.5378896,-6.894021e-06,-6.894021e-06,2.338227e-05
8.2e-12,0.2744975,0.499635,0.2744975,0.499635,0.2744076,0.4994869,0.2548429,0.4623583,0.2691704,0.4859012,0.04584906,0.1123631,0.3637049,0.6112568,-7.233207e-06,-7.233207e-06,2.481154e-05
8.3e-12,0.2914642,0.5297922,0.2914642,0.5297922,0.2913624,0.529625,0.2719641,0.4927696,0.2882577,0.5196126,0.03704214,0.0962697,0.4100526,0.6909105,-7.589207e-06,-7.589207e-06,2.631958e-05
8.4e-12,0.3093439,0.561421,0.3093439,0.561421,0.309229,0.5612326,0.2901426,0.524923,0.3085486,0.5553099,0.02826189,0.07908415,0.4596196,0.776259,-7.962763e-06,-7.962763e-06,2.790964e-05
8.5e-12,0.3281665,0.5945402,0.3281665,0.5945402,0.3280371,0.5943286,0.3094239,0.558867,0.3300746,0.5930167,0.02005015,0.06152784,0.511947,0.8663553,-8.354622e-06,-8.354622e-06,2.958492e-05
8.6e-12,0.347959,0.6291591,0.347959,0.6291591,0.3478135,0.6289221,0.32985,0.5946386,0.3528566,0.6327313,0.01302925,0.04451192,0.5664272,0.9598803,-8.765539e-06,-8.765539e-06,3.134846e-05
8.7e-12,0.368745,0.665275,0.368745,0.665275,0.3685818,0.6650103,0.3514585,0.6322601,0.3769034,0.6744223,0.007869577,0.02911564,0.6223166,1.055159,-9.196268e-06,-9.196268e-06,3.320313e-05
8.8e-12,0.3905434,0.7028719,0.3905434,0.7028719,0.3903608,0.7025771,0.3742806,0.671736,0.4022103,0.7180244,0.005248949,0.01654809,0.6787572,1.150213,-9.647554e-06,-9.647554e-06,3.515154e-05
8.9e-12,0.413368,0.7419179,0.413368,0.7419179,0.4131641,0.7415908,0.3983401,0.7130495,0.4287579,0.7634351,0.005807923,0.008095004,0.7348027,1.242857,-1.012013e-05,-1.012013e-05,3.719595e-05
9e-12,0.4372257,0.7823641,0.4372257,0.7823641,0.4369986,0.7820022,0.4236511,0.7561583,0.4565111,0.8105124,0.01010611,0.005054547,0.7894497,1.33083,-1.06147e-05,-1.06147e-05,3.93382e-05
9.1e-12,0.4621157,0.824142,0.4621157,0.824142,0.4618635,0.8237431,0.4502164,0.8009921,0.4854184,0.859074,0.01858452,0.008667029,0.841672,1.411954,-1.113193e-05,-1.113193e-05,4.157955e-05
9.2e-12,0.4880282,0.8671626,0.4880282,0.8671626,0.4877489,0.8667245,0.4780255,0.8474482,0.5154115,0.9088971,0.03153835,0.02004458,0.8904567,1.484296,-1.167245e-05,-1.167245e-05,4.392059e-05
9.3e-12,0.5149431,0.9113144,0.5149431,0.9113144,0.5146347,0.9108352,0.5070526,0.8953901,0.5464049,0.9597212,0.04910302,0.0401067,0.9348438,1.54633,-1.223681e-05,-1.223681e-05,4.636107e-05
9.4e-12,0.5428286,0.9564635,0.5428286,0.9564635,0.5424889,0.9559413,0.5372547,0.9446444,0.5782956,1.011252,0.07125499,0.06952698,0.9739679,1.59705,-1.282551e-05,-1.282551e-05,4.889976e-05
9.5e-12,0.57164,1.002453,0.57164,1.002453,0.5712672,1.001886,0.5685699,0.9950012,0.6109632,1.063166,0.09782652,0.1086947,1.007102,1.636043,-1.343892e-05,-1.343892e-05,5.153426e-05
